T2194 201:287 SEGGER J-Link V6.30b Log File (0001ms, 10704ms total)
T2194 201:287 DLL Compiled: Feb  2 2018 18:36:54 (0001ms, 10704ms total)
T2194 201:287 Logging started @ 2020-03-13 12:52 (0001ms, 10704ms total)
T2194 201:288 JLINK_SetWarnOutHandler(...) (0000ms, 10704ms total)
T2194 201:288 JLINK_OpenEx(...)
Firmware: J-Link ARM V8 compiled Nov 28 2014 13:44:46
Hardware: V8.00
S/N: 788529385
Feature(s): RDI,FlashDL,FlashBP,JFlash,GDB
TELNET listener socket opened on port 19021D:\Program Files (x86)\SEGGER\JLink\JLinkDevices.xml evaluated successfully.WEBSRV 
Starting webserver (0357ms, 11061ms total)
T2194 201:288 WEBSRV Webserver running on local port 19081 (0360ms, 11064ms total)
T2194 201:288   returns O.K. (0360ms, 11064ms total)
T2194 201:648 JLINK_GetEmuCaps()  returns 0xB9FF7BBF (0000ms, 11064ms total)
T2194 201:651 JLINK_TIF_GetAvailable(...) (0001ms, 11065ms total)
T2194 201:652 JLINK_SetErrorOutHandler(...) (0000ms, 11065ms total)
T2194 201:652 JLINK_ExecCommand("ProjectFile = "E:\github_project\MKL16_WithOSAL\code\mdk\JLinkSettings.ini"", ...).   returns 0x00 (0004ms, 11069ms total)
T2194 201:658 JLINK_ExecCommand("Device = MKL16Z64xxx4", ...). Device "MKL16Z64XXX4" selected.  returns 0x00 (0005ms, 11074ms total)
T2194 201:663 JLINK_ExecCommand("DisableConnectionTimeout", ...).   returns 0x01 (0000ms, 11074ms total)
T2194 201:663 JLINK_GetHardwareVersion()  returns 0x13880 (0000ms, 11074ms total)
T2194 201:663 JLINK_GetDLLVersion()  returns 63002 (0000ms, 11074ms total)
T2194 201:663 JLINK_GetFirmwareString(...) (0000ms, 11074ms total)
T2194 201:672 JLINK_GetDLLVersion()  returns 63002 (0000ms, 11074ms total)
T2194 201:672 JLINK_GetCompileDateTime() (0000ms, 11074ms total)
T2194 201:676 JLINK_GetFirmwareString(...) (0000ms, 11074ms total)
T2194 201:680 JLINK_GetHardwareVersion()  returns 0x13880 (0000ms, 11074ms total)
T2194 201:703 JLINK_TIF_Select(JLINKARM_TIF_SWD)  returns 0x00 (0001ms, 11075ms total)
T2194 201:705 JLINK_SetSpeed(5000) (0000ms, 11075ms total)
T2194 201:705 JLINK_GetId()InitTarget() >0x10B TIF> >0x0D TIF> >0x28 TIF> >0x0D TIF> >0x28 TIF> >0x0D TIF> >0x28 TIF> >0x0D TIF> >0x28 TIF> >0x0D TIF> >0x21 TIF> >0x0D TIF> >0x28 TIF> >0x0D TIF> >0x21 TIF> >0x0D TIF> >0x21 TIF> >0x0D TIF> >0x21 TIF> >0x0D TIF> >0x21 TIF> >0x0D TIF> >0x21 TIF> >0x0D TIF> >0x21 TIF> >0x0D TIF> >0x21 TIF> >0x0D TIF> >0x21 TIF> >0x0D TIF> >0x21 TIF> >0x0D TIF> >0x21 TIF> >0x0D TIF> >0x21 TIF> >0x0D TIF> >0x21 TIF> >0x0D TIF> >0x21 TIF> >0x0D TIF> >0x21 TIF> >0x0D TIF>
 >0x21 TIF> >0x0D TIF> >0x21 TIF> >0x0D TIF> >0x21 TIF> >0x0D TIF> >0x21 TIF> >0x0D TIF> >0x21 TIF> >0x0D TIF> >0x21 TIF> >0x0D TIF> >0x21 TIF> >0x0D TIF> >0x21 TIF> >0x0D TIF> >0x21 TIF> >0x0D TIF> >0x21 TIF> >0x0D TIF> >0x21 TIF> >0x0D TIF> >0x21 TIF> >0x0D TIF> >0x21 TIF> >0x0D TIF> >0x21 TIF> >0x0D TIF> >0x21 TIF> >0x0D TIF> >0x21 TIF> >0x0D TIF> >0x21 TIF> >0x0D TIF> >0x21 TIF> >0x0D TIF> >0x21 TIF> >0x0D TIF> >0x21 TIF> >0x0D TIF> >0x21 TIF> >0x0D TIF> >0x21 TIF> >0x0D TIF> >0x21 TIF> >0x0D TIF>
 >0x21 TIF> >0x0D TIF> >0x21 TIF> >0x0D TIF> >0x21 TIF> >0x0D TIF> >0x21 TIF> >0x0D TIF> >0x21 TIF> >0x0D TIF> >0x21 TIF> >0x0D TIF> >0x21 TIF> >0x0D TIF> >0x21 TIF> >0x0D TIF> >0x21 TIF> >0x0D TIF> >0x21 TIF> >0x0D TIF> >0x21 TIF> >0x0D TIF> >0x21 TIF> >0x0D TIF> >0x21 TIF> >0x0D TIF> >0x21 TIF> >0x0D TIF> >0x21 TIF> >0x0D TIF> >0x21 TIF> >0x0D TIF> >0x21 TIF> >0x0D TIF> >0x21 TIF> >0x0D TIF> >0x21 TIF> >0x0D TIF> >0x21 TIF> >0x0D TIF> >0x21 TIF> >0x0D TIF> >0x21 TIF> >0x0D TIF> >0x21 TIF> >0x0D TIF>
 >0x21 TIF> >0x0D TIF> >0x21 TIF> >0x0D TIF> >0x21 TIF> >0x0D TIF> >0x21 TIF> >0x0D TIF> >0x21 TIF> >0x0D TIF> >0x21 TIF> >0x0D TIF> >0x21 TIF> >0x0D TIF> >0x21 TIF> >0x0D TIF> >0x21 TIF> >0x0D TIF> >0x21 TIF> >0x0D TIF> >0x21 TIF> >0x0D TIF> >0x21 TIF> >0x0D TIF> >0x21 TIF> >0x0D TIF> >0x21 TIF> >0x0D TIF> >0x28 TIF> >0x0D TIF> >0x28 TIF> >0x0D TIF> >0x28 TIF> >0x0D TIF> >0x21 TIF> >0x0D TIF> >0x21 TIF> >0x10B TIF>Found SW-DP with ID 0x0BC11477 >0x0D TIF> >0x28 TIF> >0x0D TIF> >0x28 TIF> >0x0D TIF>
 >0x28 TIF> >0x0D TIF> >0x28 TIF> >0x0D TIF> >0x21 TIF> >0x0D TIF> >0x28 TIF>AP map detection skipped. Manually configured AP map found.AP[0]: AHB-AP (IDR: Not set)AP[1]: CUSTOM-AP (IDR: Not set) >0x42 TIF> >0x28 TIF> >0x0D TIF> >0x28 TIF> >0x0D TIF> >0x21 TIF> >0x0D TIF> >0x21 TIF> >0x42 TIF> >0x28 TIF> >0x0D TIF> >0x28 TIF> >0x0D TIF> >0x28 TIF> >0x0D TIF> >0x21 TIF> >0x0D TIF> >0x21 TIF>AP[0]: Core foundAP[0]: AHB-AP ROM base: 0xF0002000 >0x0D TIF> >0x28 TIF> >0x0D TIF> >0x28 TIF> >0x0D TIF>
 >0x28 TIF> >0x0D TIF> >0x21 TIF> >0x0D TIF> >0x21 TIF>CPUID register: 0x410CC600. Implementer code: 0x41 (ARM)Found Cortex-M0 r0p0, Little endian. -- CPU_ReadMem(4 bytes @ 0xE000EDF0) -- CPU_ReadMem(4 bytes @ 0xE0002000)FPUnit: 2 code (BP) slots and 0 literal slots -- CPU_ReadMem(4 bytes @ 0xE000EDFC) -- CPU_ReadMem(4 bytes @ 0xE0001000) -- CPU_WriteMem(4 bytes @ 0xE0001000)CoreSight components:ROMTbl[0] @ F0002000 -- CPU_ReadMem(16 bytes @ 0xF0002000) -- CPU_ReadMem(16 bytes @ 0xF0000FF0)
 -- CPU_ReadMem(16 bytes @ 0xF0000FE0)ROMTbl[0][0]: F0000000, CID: B105900D, PID: 000BB932 MTB-M0+ -- CPU_ReadMem(16 bytes @ 0xF0001FF0) -- CPU_ReadMem(16 bytes @ 0xF0001FE0)ROMTbl[0][1]: F0001000, CID: B105900D, PID: 0008E000 MTBDWT -- CPU_ReadMem(16 bytes @ 0xE00FFFF0) -- CPU_ReadMem(16 bytes @ 0xE00FFFE0)ROMTbl[0][2]: E00FF000, CID: B105100D, PID: 000BB4C0 ROM TableROMTbl[1] @ E00FF000 -- CPU_ReadMem(16 bytes @ 0xE00FF000) -- CPU_ReadMem(16 bytes @ 0xE000EFF0) -- CPU_ReadMem(16 bytes @ 0xE000EFE0)
ROMTbl[1][0]: E000E000, CID: B105E00D, PID: 000BB008 SCS -- CPU_ReadMem(16 bytes @ 0xE0001FF0) -- CPU_ReadMem(16 bytes @ 0xE0001FE0)ROMTbl[1][1]: E0001000, CID: B105E00D, PID: 000BB00A DWT -- CPU_ReadMem(16 bytes @ 0xE0002FF0) -- CPU_ReadMem(16 bytes @ 0xE0002FE0)ROMTbl[1][2]: E0002000, CID: B105E00D, PID: 000BB00B FPB >0x0D TIF> >0x21 TIF>  returns 0x0BC11477 (0310ms, 11385ms total)
T2194 202:015 JLINK_GetDLLVersion()  returns 63002 (0000ms, 11385ms total)
T2194 202:015 JLINK_CORE_GetFound()  returns 0x60000FF (0000ms, 11385ms total)
T2194 202:015 JLINK_GetDebugInfo(0x100 = JLINKARM_ROM_TABLE_ADDR_INDEX) -- Value=0xF0002000  returns 0x00 (0000ms, 11385ms total)
T2194 202:024 JLINK_GetDebugInfo(0x100 = JLINKARM_ROM_TABLE_ADDR_INDEX) -- Value=0xF0002000  returns 0x00 (0000ms, 11385ms total)
T2194 202:024 JLINK_GetDebugInfo(0x101 = JLINKARM_DEBUG_INFO_ETM_ADDR_INDEX) -- Value=0x00000000  returns 0x00 (0000ms, 11385ms total)
T2194 202:024 JLINK_ReadMemEx(0xE0041FF0, 0x0010 Bytes, ..., Flags = 0x02000004) -- CPU_ReadMem(16 bytes @ 0xE0041FF0) - Data: 00 00 00 00 00 00 00 00 00 00 00 00 00 00 00 00  returns 0x10 (0001ms, 11386ms total)
T2194 202:025 JLINK_GetDebugInfo(0x102 = JLINKARM_DEBUG_INFO_MTB_ADDR_INDEX) -- Value=0xF0000000  returns 0x00 (0000ms, 11386ms total)
T2194 202:025 JLINK_CORE_GetFound()  returns 0x60000FF (0000ms, 11386ms total)
T2194 202:025 JLINK_GetDebugInfo(0x103 = JLINKARM_DEBUG_INFO_TPIU_ADDR_INDEX) -- Value=0x00000000  returns 0x00 (0000ms, 11386ms total)
T2194 202:025 JLINK_ReadMemEx(0xE0040FF0, 0x0010 Bytes, ..., Flags = 0x02000004) -- CPU_ReadMem(16 bytes @ 0xE0040FF0) - Data: 00 00 00 00 00 00 00 00 00 00 00 00 00 00 00 00  returns 0x10 (0001ms, 11387ms total)
T2194 202:026 JLINK_GetDebugInfo(0x104 = JLINKARM_DEBUG_INFO_ITM_ADDR_INDEX) -- Value=0xE0000000  returns 0x00 (0000ms, 11387ms total)
T2194 202:026 JLINK_GetDebugInfo(0x105 = JLINKARM_DEBUG_INFO_DWT_ADDR_INDEX) -- Value=0xE0001000  returns 0x00 (0000ms, 11387ms total)
T2194 202:026 JLINK_GetDebugInfo(0x106 = JLINKARM_DEBUG_INFO_FPB_ADDR_INDEX) -- Value=0xE0002000  returns 0x00 (0000ms, 11387ms total)
T2194 202:026 JLINK_GetDebugInfo(0x107 = JLINKARM_DEBUG_INFO_NVIC_ADDR_INDEX) -- Value=0xE000E000  returns 0x00 (0000ms, 11387ms total)
T2194 202:026 JLINK_GetDebugInfo(0x10C = JLINKARM_DEBUG_INFO_DBG_ADDR_INDEX) -- Value=0xE000EDF0  returns 0x00 (0000ms, 11387ms total)
T2194 202:026 JLINK_GetDebugInfo(0x01 = Unknown) -- Value=0x00000000  returns 0x00 (0000ms, 11387ms total)
T2194 202:026 JLINK_ReadMemU32(0xE000ED00, 0x0001 Items, ...) -- CPU_ReadMem(4 bytes @ 0xE000ED00) - Data: 00 C6 0C 41  returns 0x01 (0001ms, 11388ms total)
T2194 202:027 JLINK_GetDebugInfo(0x10F = JLINKARM_DEBUG_INFO_HAS_CORTEX_M_SECURITY_EXT_INDEX) -- Value=0x00000000  returns 0x00 (0000ms, 11388ms total)
T2194 202:027 JLINK_SetResetType(JLINKARM_CM3_RESET_TYPE_NORMAL)  returns JLINKARM_CM3_RESET_TYPE_NORMAL (0000ms, 11388ms total)
T2194 202:027 JLINK_Reset() -- CPU is running -- CPU_WriteMem(4 bytes @ 0xE000EDF0) -- CPU is running -- CPU_WriteMem(4 bytes @ 0xE000EDFC)Reset: Halt core after reset via DEMCR.VC_CORERESET. >0x35 TIF>Reset: Reset device via AIRCR.SYSRESETREQ. -- CPU is running -- CPU_WriteMem(4 bytes @ 0xE000ED0C) >0x0D TIF> >0x28 TIF> -- CPU_ReadMem(4 bytes @ 0xE000EDF0) -- CPU_ReadMem(4 bytes @ 0xE000EDF0) -- CPU is running -- CPU_WriteMem(4 bytes @ 0xE000EDF0) -- CPU is running -- CPU_WriteMem(4 bytes @ 0xE000EDFC)
 -- CPU_ReadMem(4 bytes @ 0xE000EDF0) -- CPU_WriteMem(4 bytes @ 0xE0002000) -- CPU_ReadMem(4 bytes @ 0xE000EDFC) -- CPU_ReadMem(4 bytes @ 0xE0001000) -- CPU_WriteMem(4 bytes @ 0xE0001000) (0081ms, 11469ms total)
T2194 202:108 JLINK_Halt()  returns 0x00 (0000ms, 11469ms total)
T2194 202:108 JLINK_ReadMemU32(0xE000EDF0, 0x0001 Items, ...) -- CPU_ReadMem(4 bytes @ 0xE000EDF0) - Data: 03 00 03 01  returns 0x01 (0030ms, 11499ms total)
T2194 202:138 JLINK_WriteU32(0xE000EDF0, 0xA05F0003) -- CPU_WriteMem(4 bytes @ 0xE000EDF0)  returns 0x00 (0000ms, 11499ms total)
T2194 202:138 JLINK_WriteU32(0xE000EDFC, 0x01000000) -- CPU_WriteMem(4 bytes @ 0xE000EDFC)  returns 0x00 (0001ms, 11500ms total)
T2194 202:157 JLINK_GetHWStatus(...)  returns 0x00 (0000ms, 11500ms total)
T2194 202:175 JLINK_GetNumBPUnits(Type = 0xFFFFFF00)  returns 0x02 (0000ms, 11500ms total)
T2194 202:175 JLINK_GetNumBPUnits(Type = 0xF0)  returns 0x2000 (0000ms, 11500ms total)
T2194 202:175 JLINK_GetNumWPUnits()  returns 0x02 (0000ms, 11500ms total)
T2194 202:190 JLINK_GetSpeed()  returns 0xFA0 (0000ms, 11500ms total)
T2194 202:206 JLINK_ReadMemU32(0xE000E004, 0x0001 Items, ...) -- CPU_ReadMem(4 bytes @ 0xE000E004) - Data: 00 00 00 00  returns 0x01 (0004ms, 11504ms total)
T2194 202:210 JLINK_Halt()  returns 0x00 (0000ms, 11504ms total)
T2194 202:210 JLINK_IsHalted()  returns TRUE (0000ms, 11504ms total)
T2194 202:218 JLINK_WriteMem(0x1FFFF800, 0x0620 Bytes, ...) - Data: 00 BE 0A E0 0D 78 2D 06 68 40 08 24 40 00 00 D3 ... -- CPU_WriteMem(1568 bytes @ 0x1FFFF800)  returns 0x620 (0010ms, 11514ms total)
T2194 202:228 JLINK_WriteReg(R0, 0x00000000)  returns 0x00 (0000ms, 11514ms total)
T2194 202:228 JLINK_WriteReg(R1, 0x00B71B00)  returns 0x00 (0000ms, 11514ms total)
T2194 202:228 JLINK_WriteReg(R2, 0x00000001)  returns 0x00 (0000ms, 11514ms total)
T2194 202:228 JLINK_WriteReg(R3, 0x00000000)  returns 0x00 (0000ms, 11514ms total)
T2194 202:228 JLINK_WriteReg(R4, 0x00000000)  returns 0x00 (0000ms, 11514ms total)
T2194 202:228 JLINK_WriteReg(R5, 0x00000000)  returns 0x00 (0000ms, 11514ms total)
T2194 202:228 JLINK_WriteReg(R6, 0x00000000)  returns 0x00 (0000ms, 11514ms total)
T2194 202:228 JLINK_WriteReg(R7, 0x00000000)  returns 0x00 (0000ms, 11514ms total)
T2194 202:229 JLINK_WriteReg(R8, 0x00000000)  returns 0x00 (0000ms, 11515ms total)
T2194 202:229 JLINK_WriteReg(R9, 0x1FFFFE18)  returns 0x00 (0000ms, 11515ms total)
T2194 202:229 JLINK_WriteReg(R10, 0x00000000)  returns 0x00 (0000ms, 11515ms total)
T2194 202:229 JLINK_WriteReg(R11, 0x00000000)  returns 0x00 (0000ms, 11515ms total)
T2194 202:229 JLINK_WriteReg(R12, 0x00000000)  returns 0x00 (0000ms, 11515ms total)
T2194 202:229 JLINK_WriteReg(R13 (SP), 0x20001800)  returns 0x00 (0000ms, 11515ms total)
T2194 202:229 JLINK_WriteReg(R14, 0x1FFFF801)  returns 0x00 (0000ms, 11515ms total)
T2194 202:229 JLINK_WriteReg(R15 (PC), 0x1FFFF820)  returns 0x00 (0000ms, 11515ms total)
T2194 202:229 JLINK_WriteReg(XPSR, 0x01000000)  returns 0x00 (0000ms, 11515ms total)
T2194 202:229 JLINK_WriteReg(MSP, 0x20001800)  returns 0x00 (0000ms, 11515ms total)
T2194 202:229 JLINK_WriteReg(PSP, 0x20001800)  returns 0x00 (0000ms, 11515ms total)
T2194 202:229 JLINK_WriteReg(CFBP, 0x00000000)  returns 0x00 (0000ms, 11515ms total)
T2194 202:229 JLINK_SetBPEx(Addr = 0x1FFFF800, Type = 0xFFFFFFF2)  returns 0x00000001 (0000ms, 11515ms total)
T2194 202:229 JLINK_Go() -- CPU_WriteMem(4 bytes @ 0xE0002000) -- CPU_ReadMem(4 bytes @ 0xE0001000) -- CPU_WriteMem(4 bytes @ 0xE0001000) -- CPU_WriteMem(4 bytes @ 0xE0002008) -- CPU_WriteMem(4 bytes @ 0xE000200C) -- CPU_WriteMem(4 bytes @ 0xE0001004) (0006ms, 11521ms total)
T2194 202:235 JLINK_IsHalted()  returns TRUE (0002ms, 11523ms total)
T2194 202:237 JLINK_ReadReg(R15 (PC))  returns 0x1FFFF800 (0001ms, 11522ms total)
T2194 202:238 JLINK_ClrBPEx(BPHandle = 0x00000001)  returns 0x00 (0000ms, 11522ms total)
T2194 202:238 JLINK_ReadReg(R0)  returns 0x00000000 (0000ms, 11522ms total)
T2194 202:238 JLINK_WriteReg(R0, 0x00000000)  returns 0x00 (0000ms, 11522ms total)
T2194 202:238 JLINK_WriteReg(R1, 0x00000400)  returns 0x00 (0000ms, 11522ms total)
T2194 202:238 JLINK_WriteReg(R2, 0x000000FF)  returns 0x00 (0000ms, 11522ms total)
T2194 202:238 JLINK_WriteReg(R3, 0x00000000)  returns 0x00 (0000ms, 11522ms total)
T2194 202:238 JLINK_WriteReg(R4, 0x00000000)  returns 0x00 (0000ms, 11522ms total)
T2194 202:238 JLINK_WriteReg(R5, 0x00000000)  returns 0x00 (0000ms, 11522ms total)
T2194 202:238 JLINK_WriteReg(R6, 0x00000000)  returns 0x00 (0000ms, 11522ms total)
T2194 202:238 JLINK_WriteReg(R7, 0x00000000)  returns 0x00 (0000ms, 11522ms total)
T2194 202:238 JLINK_WriteReg(R8, 0x00000000)  returns 0x00 (0000ms, 11522ms total)
T2194 202:238 JLINK_WriteReg(R9, 0x1FFFFE18)  returns 0x00 (0000ms, 11522ms total)
T2194 202:238 JLINK_WriteReg(R10, 0x00000000)  returns 0x00 (0000ms, 11522ms total)
T2194 202:238 JLINK_WriteReg(R11, 0x00000000)  returns 0x00 (0001ms, 11523ms total)
T2194 202:239 JLINK_WriteReg(R12, 0x00000000)  returns 0x00 (0000ms, 11523ms total)
T2194 202:239 JLINK_WriteReg(R13 (SP), 0x20001800)  returns 0x00 (0000ms, 11523ms total)
T2194 202:239 JLINK_WriteReg(R14, 0x1FFFF801)  returns 0x00 (0000ms, 11523ms total)
T2194 202:239 JLINK_WriteReg(R15 (PC), 0x1FFFF868)  returns 0x00 (0000ms, 11523ms total)
T2194 202:239 JLINK_WriteReg(XPSR, 0x01000000)  returns 0x00 (0000ms, 11523ms total)
T2194 202:239 JLINK_WriteReg(MSP, 0x20001800)  returns 0x00 (0000ms, 11523ms total)
T2194 202:239 JLINK_WriteReg(PSP, 0x20001800)  returns 0x00 (0000ms, 11523ms total)
T2194 202:239 JLINK_WriteReg(CFBP, 0x00000000)  returns 0x00 (0000ms, 11523ms total)
T2194 202:239 JLINK_SetBPEx(Addr = 0x1FFFF800, Type = 0xFFFFFFF2)  returns 0x00000002 (0000ms, 11523ms total)
T2194 202:239 JLINK_Go() -- CPU_WriteMem(4 bytes @ 0xE0002000) -- CPU_ReadMem(4 bytes @ 0xE0001000) -- CPU_WriteMem(4 bytes @ 0xE0001000) (0003ms, 11526ms total)
T2194 202:242 JLINK_IsHalted()  returns TRUE (0003ms, 11529ms total)
T2194 202:245 JLINK_ReadReg(R15 (PC))  returns 0x1FFFF800 (0000ms, 11526ms total)
T2194 202:245 JLINK_ClrBPEx(BPHandle = 0x00000002)  returns 0x00 (0000ms, 11526ms total)
T2194 202:245 JLINK_ReadReg(R0)  returns 0x00000001 (0000ms, 11526ms total)
T2194 202:245 JLINK_WriteReg(R0, 0x00000000)  returns 0x00 (0000ms, 11526ms total)
T2194 202:245 JLINK_WriteReg(R1, 0x00000400)  returns 0x00 (0000ms, 11526ms total)
T2194 202:245 JLINK_WriteReg(R2, 0x000000FF)  returns 0x00 (0000ms, 11526ms total)
T2194 202:245 JLINK_WriteReg(R3, 0x00000000)  returns 0x00 (0000ms, 11526ms total)
T2194 202:245 JLINK_WriteReg(R4, 0x00000000)  returns 0x00 (0000ms, 11526ms total)
T2194 202:245 JLINK_WriteReg(R5, 0x00000000)  returns 0x00 (0000ms, 11526ms total)
T2194 202:245 JLINK_WriteReg(R6, 0x00000000)  returns 0x00 (0000ms, 11526ms total)
T2194 202:245 JLINK_WriteReg(R7, 0x00000000)  returns 0x00 (0000ms, 11526ms total)
T2194 202:245 JLINK_WriteReg(R8, 0x00000000)  returns 0x00 (0000ms, 11526ms total)
T2194 202:245 JLINK_WriteReg(R9, 0x1FFFFE18)  returns 0x00 (0000ms, 11526ms total)
T2194 202:245 JLINK_WriteReg(R10, 0x00000000)  returns 0x00 (0000ms, 11526ms total)
T2194 202:245 JLINK_WriteReg(R11, 0x00000000)  returns 0x00 (0000ms, 11526ms total)
T2194 202:245 JLINK_WriteReg(R12, 0x00000000)  returns 0x00 (0000ms, 11526ms total)
T2194 202:245 JLINK_WriteReg(R13 (SP), 0x20001800)  returns 0x00 (0000ms, 11526ms total)
T2194 202:245 JLINK_WriteReg(R14, 0x1FFFF801)  returns 0x00 (0001ms, 11527ms total)
T2194 202:246 JLINK_WriteReg(R15 (PC), 0x1FFFF8BC)  returns 0x00 (0000ms, 11527ms total)
T2194 202:246 JLINK_WriteReg(XPSR, 0x01000000)  returns 0x00 (0000ms, 11527ms total)
T2194 202:246 JLINK_WriteReg(MSP, 0x20001800)  returns 0x00 (0000ms, 11527ms total)
T2194 202:246 JLINK_WriteReg(PSP, 0x20001800)  returns 0x00 (0000ms, 11527ms total)
T2194 202:246 JLINK_WriteReg(CFBP, 0x00000000)  returns 0x00 (0000ms, 11527ms total)
T2194 202:246 JLINK_SetBPEx(Addr = 0x1FFFF800, Type = 0xFFFFFFF2)  returns 0x00000003 (0000ms, 11527ms total)
T2194 202:246 JLINK_Go() -- CPU_WriteMem(4 bytes @ 0xE0002000) -- CPU_ReadMem(4 bytes @ 0xE0001000) -- CPU_WriteMem(4 bytes @ 0xE0001000) (0003ms, 11530ms total)
T2194 202:249 JLINK_IsHalted()  returns TRUE (0032ms, 11562ms total)
T2194 202:281 JLINK_ReadReg(R15 (PC))  returns 0x1FFFF800 (0000ms, 11530ms total)
T2194 202:281 JLINK_ClrBPEx(BPHandle = 0x00000003)  returns 0x00 (0000ms, 11530ms total)
T2194 202:281 JLINK_ReadReg(R0)  returns 0x00000000 (0000ms, 11530ms total)
T2194 202:282 JLINK_WriteReg(R0, 0x00000400)  returns 0x00 (0000ms, 11530ms total)
T2194 202:282 JLINK_WriteReg(R1, 0x00000400)  returns 0x00 (0000ms, 11530ms total)
T2194 202:282 JLINK_WriteReg(R2, 0x000000FF)  returns 0x00 (0000ms, 11530ms total)
T2194 202:282 JLINK_WriteReg(R3, 0x00000000)  returns 0x00 (0000ms, 11530ms total)
T2194 202:282 JLINK_WriteReg(R4, 0x00000000)  returns 0x00 (0000ms, 11530ms total)
T2194 202:282 JLINK_WriteReg(R5, 0x00000000)  returns 0x00 (0000ms, 11530ms total)
T2194 202:282 JLINK_WriteReg(R6, 0x00000000)  returns 0x00 (0000ms, 11530ms total)
T2194 202:282 JLINK_WriteReg(R7, 0x00000000)  returns 0x00 (0000ms, 11530ms total)
T2194 202:282 JLINK_WriteReg(R8, 0x00000000)  returns 0x00 (0000ms, 11530ms total)
T2194 202:282 JLINK_WriteReg(R9, 0x1FFFFE18)  returns 0x00 (0000ms, 11530ms total)
T2194 202:282 JLINK_WriteReg(R10, 0x00000000)  returns 0x00 (0000ms, 11530ms total)
T2194 202:282 JLINK_WriteReg(R11, 0x00000000)  returns 0x00 (0000ms, 11530ms total)
T2194 202:282 JLINK_WriteReg(R12, 0x00000000)  returns 0x00 (0000ms, 11530ms total)
T2194 202:282 JLINK_WriteReg(R13 (SP), 0x20001800)  returns 0x00 (0000ms, 11530ms total)
T2194 202:282 JLINK_WriteReg(R14, 0x1FFFF801)  returns 0x00 (0000ms, 11530ms total)
T2194 202:282 JLINK_WriteReg(R15 (PC), 0x1FFFF868)  returns 0x00 (0000ms, 11530ms total)
T2194 202:282 JLINK_WriteReg(XPSR, 0x01000000)  returns 0x00 (0000ms, 11530ms total)
T2194 202:282 JLINK_WriteReg(MSP, 0x20001800)  returns 0x00 (0000ms, 11530ms total)
T2194 202:282 JLINK_WriteReg(PSP, 0x20001800)  returns 0x00 (0000ms, 11530ms total)
T2194 202:282 JLINK_WriteReg(CFBP, 0x00000000)  returns 0x00 (0000ms, 11530ms total)
T2194 202:282 JLINK_SetBPEx(Addr = 0x1FFFF800, Type = 0xFFFFFFF2)  returns 0x00000004 (0001ms, 11531ms total)
T2194 202:283 JLINK_Go() -- CPU_WriteMem(4 bytes @ 0xE0002000) -- CPU_ReadMem(4 bytes @ 0xE0001000) -- CPU_WriteMem(4 bytes @ 0xE0001000) (0003ms, 11534ms total)
T2194 202:286 JLINK_IsHalted()  returns TRUE (0003ms, 11537ms total)
T2194 202:289 JLINK_ReadReg(R15 (PC))  returns 0x1FFFF800 (0000ms, 11534ms total)
T2194 202:289 JLINK_ClrBPEx(BPHandle = 0x00000004)  returns 0x00 (0000ms, 11534ms total)
T2194 202:289 JLINK_ReadReg(R0)  returns 0x00000001 (0000ms, 11534ms total)
T2194 202:289 JLINK_WriteReg(R0, 0x00000400)  returns 0x00 (0000ms, 11534ms total)
T2194 202:289 JLINK_WriteReg(R1, 0x00000400)  returns 0x00 (0000ms, 11534ms total)
T2194 202:289 JLINK_WriteReg(R2, 0x000000FF)  returns 0x00 (0000ms, 11534ms total)
T2194 202:289 JLINK_WriteReg(R3, 0x00000000)  returns 0x00 (0000ms, 11534ms total)
T2194 202:289 JLINK_WriteReg(R4, 0x00000000)  returns 0x00 (0000ms, 11534ms total)
T2194 202:289 JLINK_WriteReg(R5, 0x00000000)  returns 0x00 (0000ms, 11534ms total)
T2194 202:289 JLINK_WriteReg(R6, 0x00000000)  returns 0x00 (0000ms, 11534ms total)
T2194 202:289 JLINK_WriteReg(R7, 0x00000000)  returns 0x00 (0000ms, 11534ms total)
T2194 202:289 JLINK_WriteReg(R8, 0x00000000)  returns 0x00 (0000ms, 11534ms total)
T2194 202:289 JLINK_WriteReg(R9, 0x1FFFFE18)  returns 0x00 (0000ms, 11534ms total)
T2194 202:289 JLINK_WriteReg(R10, 0x00000000)  returns 0x00 (0000ms, 11534ms total)
T2194 202:289 JLINK_WriteReg(R11, 0x00000000)  returns 0x00 (0000ms, 11534ms total)
T2194 202:289 JLINK_WriteReg(R12, 0x00000000)  returns 0x00 (0001ms, 11535ms total)
T2194 202:290 JLINK_WriteReg(R13 (SP), 0x20001800)  returns 0x00 (0000ms, 11535ms total)
T2194 202:290 JLINK_WriteReg(R14, 0x1FFFF801)  returns 0x00 (0000ms, 11535ms total)
T2194 202:290 JLINK_WriteReg(R15 (PC), 0x1FFFF8BC)  returns 0x00 (0000ms, 11535ms total)
T2194 202:290 JLINK_WriteReg(XPSR, 0x01000000)  returns 0x00 (0000ms, 11535ms total)
T2194 202:290 JLINK_WriteReg(MSP, 0x20001800)  returns 0x00 (0000ms, 11535ms total)
T2194 202:290 JLINK_WriteReg(PSP, 0x20001800)  returns 0x00 (0000ms, 11535ms total)
T2194 202:290 JLINK_WriteReg(CFBP, 0x00000000)  returns 0x00 (0000ms, 11535ms total)
T2194 202:290 JLINK_SetBPEx(Addr = 0x1FFFF800, Type = 0xFFFFFFF2)  returns 0x00000005 (0000ms, 11535ms total)
T2194 202:290 JLINK_Go() -- CPU_WriteMem(4 bytes @ 0xE0002000) -- CPU_ReadMem(4 bytes @ 0xE0001000) -- CPU_WriteMem(4 bytes @ 0xE0001000) (0003ms, 11538ms total)
T2194 202:294 JLINK_IsHalted()  returns FALSE (0000ms, 11538ms total)
T2194 202:438 JLINK_IsHalted()  returns TRUE (0013ms, 11551ms total)
T2194 202:451 JLINK_ReadReg(R15 (PC))  returns 0x1FFFF800 (0000ms, 11538ms total)
T2194 202:451 JLINK_ClrBPEx(BPHandle = 0x00000005)  returns 0x00 (0000ms, 11538ms total)
T2194 202:451 JLINK_ReadReg(R0)  returns 0x00000000 (0000ms, 11538ms total)
T2194 202:452 JLINK_WriteReg(R0, 0x00000800)  returns 0x00 (0000ms, 11538ms total)
T2194 202:452 JLINK_WriteReg(R1, 0x00000400)  returns 0x00 (0000ms, 11538ms total)
T2194 202:452 JLINK_WriteReg(R2, 0x000000FF)  returns 0x00 (0000ms, 11538ms total)
T2194 202:452 JLINK_WriteReg(R3, 0x00000000)  returns 0x00 (0000ms, 11538ms total)
T2194 202:452 JLINK_WriteReg(R4, 0x00000000)  returns 0x00 (0000ms, 11538ms total)
T2194 202:452 JLINK_WriteReg(R5, 0x00000000)  returns 0x00 (0000ms, 11538ms total)
T2194 202:452 JLINK_WriteReg(R6, 0x00000000)  returns 0x00 (0000ms, 11538ms total)
T2194 202:452 JLINK_WriteReg(R7, 0x00000000)  returns 0x00 (0000ms, 11538ms total)
T2194 202:452 JLINK_WriteReg(R8, 0x00000000)  returns 0x00 (0000ms, 11538ms total)
T2194 202:452 JLINK_WriteReg(R9, 0x1FFFFE18)  returns 0x00 (0000ms, 11538ms total)
T2194 202:452 JLINK_WriteReg(R10, 0x00000000)  returns 0x00 (0000ms, 11538ms total)
T2194 202:452 JLINK_WriteReg(R11, 0x00000000)  returns 0x00 (0000ms, 11538ms total)
T2194 202:452 JLINK_WriteReg(R12, 0x00000000)  returns 0x00 (0000ms, 11538ms total)
T2194 202:452 JLINK_WriteReg(R13 (SP), 0x20001800)  returns 0x00 (0001ms, 11539ms total)
T2194 202:453 JLINK_WriteReg(R14, 0x1FFFF801)  returns 0x00 (0000ms, 11539ms total)
T2194 202:453 JLINK_WriteReg(R15 (PC), 0x1FFFF868)  returns 0x00 (0000ms, 11539ms total)
T2194 202:453 JLINK_WriteReg(XPSR, 0x01000000)  returns 0x00 (0000ms, 11539ms total)
T2194 202:453 JLINK_WriteReg(MSP, 0x20001800)  returns 0x00 (0000ms, 11539ms total)
T2194 202:453 JLINK_WriteReg(PSP, 0x20001800)  returns 0x00 (0000ms, 11539ms total)
T2194 202:453 JLINK_WriteReg(CFBP, 0x00000000)  returns 0x00 (0000ms, 11539ms total)
T2194 202:453 JLINK_SetBPEx(Addr = 0x1FFFF800, Type = 0xFFFFFFF2)  returns 0x00000006 (0000ms, 11539ms total)
T2194 202:453 JLINK_Go() -- CPU_WriteMem(4 bytes @ 0xE0002000) -- CPU_ReadMem(4 bytes @ 0xE0001000) -- CPU_WriteMem(4 bytes @ 0xE0001000) (0003ms, 11542ms total)
T2194 202:456 JLINK_IsHalted()  returns TRUE (0003ms, 11545ms total)
T2194 202:459 JLINK_ReadReg(R15 (PC))  returns 0x1FFFF800 (0000ms, 11542ms total)
T2194 202:459 JLINK_ClrBPEx(BPHandle = 0x00000006)  returns 0x00 (0000ms, 11542ms total)
T2194 202:459 JLINK_ReadReg(R0)  returns 0x00000001 (0000ms, 11542ms total)
T2194 202:459 JLINK_WriteReg(R0, 0x00000800)  returns 0x00 (0000ms, 11542ms total)
T2194 202:459 JLINK_WriteReg(R1, 0x00000400)  returns 0x00 (0000ms, 11542ms total)
T2194 202:459 JLINK_WriteReg(R2, 0x000000FF)  returns 0x00 (0000ms, 11542ms total)
T2194 202:459 JLINK_WriteReg(R3, 0x00000000)  returns 0x00 (0000ms, 11542ms total)
T2194 202:459 JLINK_WriteReg(R4, 0x00000000)  returns 0x00 (0000ms, 11542ms total)
T2194 202:459 JLINK_WriteReg(R5, 0x00000000)  returns 0x00 (0000ms, 11542ms total)
T2194 202:459 JLINK_WriteReg(R6, 0x00000000)  returns 0x00 (0000ms, 11542ms total)
T2194 202:459 JLINK_WriteReg(R7, 0x00000000)  returns 0x00 (0000ms, 11542ms total)
T2194 202:459 JLINK_WriteReg(R8, 0x00000000)  returns 0x00 (0000ms, 11542ms total)
T2194 202:459 JLINK_WriteReg(R9, 0x1FFFFE18)  returns 0x00 (0000ms, 11542ms total)
T2194 202:459 JLINK_WriteReg(R10, 0x00000000)  returns 0x00 (0000ms, 11542ms total)
T2194 202:459 JLINK_WriteReg(R11, 0x00000000)  returns 0x00 (0000ms, 11542ms total)
T2194 202:459 JLINK_WriteReg(R12, 0x00000000)  returns 0x00 (0000ms, 11542ms total)
T2194 202:459 JLINK_WriteReg(R13 (SP), 0x20001800)  returns 0x00 (0000ms, 11542ms total)
T2194 202:459 JLINK_WriteReg(R14, 0x1FFFF801)  returns 0x00 (0001ms, 11543ms total)
T2194 202:460 JLINK_WriteReg(R15 (PC), 0x1FFFF8BC)  returns 0x00 (0000ms, 11543ms total)
T2194 202:460 JLINK_WriteReg(XPSR, 0x01000000)  returns 0x00 (0000ms, 11543ms total)
T2194 202:460 JLINK_WriteReg(MSP, 0x20001800)  returns 0x00 (0000ms, 11543ms total)
T2194 202:460 JLINK_WriteReg(PSP, 0x20001800)  returns 0x00 (0000ms, 11543ms total)
T2194 202:460 JLINK_WriteReg(CFBP, 0x00000000)  returns 0x00 (0000ms, 11543ms total)
T2194 202:460 JLINK_SetBPEx(Addr = 0x1FFFF800, Type = 0xFFFFFFF2)  returns 0x00000007 (0000ms, 11543ms total)
T2194 202:460 JLINK_Go() -- CPU_WriteMem(4 bytes @ 0xE0002000) -- CPU_ReadMem(4 bytes @ 0xE0001000) -- CPU_WriteMem(4 bytes @ 0xE0001000) (0003ms, 11546ms total)
T2194 202:463 JLINK_IsHalted()  returns FALSE (0000ms, 11546ms total)
T2194 202:466 JLINK_IsHalted()  returns FALSE (0000ms, 11546ms total)
T2194 202:468 JLINK_IsHalted()  returns FALSE (0000ms, 11546ms total)
T2194 202:470 JLINK_IsHalted()  returns FALSE (0000ms, 11546ms total)
T2194 202:472 JLINK_IsHalted()  returns TRUE (0002ms, 11548ms total)
T2194 202:474 JLINK_ReadReg(R15 (PC))  returns 0x1FFFF800 (0000ms, 11546ms total)
T2194 202:474 JLINK_ClrBPEx(BPHandle = 0x00000007)  returns 0x00 (0000ms, 11546ms total)
T2194 202:474 JLINK_ReadReg(R0)  returns 0x00000000 (0000ms, 11546ms total)
T2194 202:475 JLINK_WriteReg(R0, 0x00000C00)  returns 0x00 (0000ms, 11546ms total)
T2194 202:475 JLINK_WriteReg(R1, 0x00000400)  returns 0x00 (0000ms, 11546ms total)
T2194 202:475 JLINK_WriteReg(R2, 0x000000FF)  returns 0x00 (0000ms, 11546ms total)
T2194 202:475 JLINK_WriteReg(R3, 0x00000000)  returns 0x00 (0000ms, 11546ms total)
T2194 202:475 JLINK_WriteReg(R4, 0x00000000)  returns 0x00 (0000ms, 11546ms total)
T2194 202:475 JLINK_WriteReg(R5, 0x00000000)  returns 0x00 (0000ms, 11546ms total)
T2194 202:475 JLINK_WriteReg(R6, 0x00000000)  returns 0x00 (0000ms, 11546ms total)
T2194 202:475 JLINK_WriteReg(R7, 0x00000000)  returns 0x00 (0000ms, 11546ms total)
T2194 202:475 JLINK_WriteReg(R8, 0x00000000)  returns 0x00 (0000ms, 11546ms total)
T2194 202:475 JLINK_WriteReg(R9, 0x1FFFFE18)  returns 0x00 (0000ms, 11546ms total)
T2194 202:475 JLINK_WriteReg(R10, 0x00000000)  returns 0x00 (0000ms, 11546ms total)
T2194 202:475 JLINK_WriteReg(R11, 0x00000000)  returns 0x00 (0000ms, 11546ms total)
T2194 202:475 JLINK_WriteReg(R12, 0x00000000)  returns 0x00 (0000ms, 11546ms total)
T2194 202:475 JLINK_WriteReg(R13 (SP), 0x20001800)  returns 0x00 (0000ms, 11546ms total)
T2194 202:475 JLINK_WriteReg(R14, 0x1FFFF801)  returns 0x00 (0000ms, 11546ms total)
T2194 202:475 JLINK_WriteReg(R15 (PC), 0x1FFFF868)  returns 0x00 (0001ms, 11547ms total)
T2194 202:476 JLINK_WriteReg(XPSR, 0x01000000)  returns 0x00 (0000ms, 11547ms total)
T2194 202:476 JLINK_WriteReg(MSP, 0x20001800)  returns 0x00 (0000ms, 11547ms total)
T2194 202:476 JLINK_WriteReg(PSP, 0x20001800)  returns 0x00 (0000ms, 11547ms total)
T2194 202:476 JLINK_WriteReg(CFBP, 0x00000000)  returns 0x00 (0000ms, 11547ms total)
T2194 202:476 JLINK_SetBPEx(Addr = 0x1FFFF800, Type = 0xFFFFFFF2)  returns 0x00000008 (0000ms, 11547ms total)
T2194 202:476 JLINK_Go() -- CPU_WriteMem(4 bytes @ 0xE0002000) -- CPU_ReadMem(4 bytes @ 0xE0001000) -- CPU_WriteMem(4 bytes @ 0xE0001000) (0003ms, 11550ms total)
T2194 202:479 JLINK_IsHalted()  returns TRUE (0003ms, 11553ms total)
T2194 202:482 JLINK_ReadReg(R15 (PC))  returns 0x1FFFF800 (0000ms, 11550ms total)
T2194 202:482 JLINK_ClrBPEx(BPHandle = 0x00000008)  returns 0x00 (0000ms, 11550ms total)
T2194 202:482 JLINK_ReadReg(R0)  returns 0x00000001 (0000ms, 11550ms total)
T2194 202:482 JLINK_WriteReg(R0, 0x00000C00)  returns 0x00 (0000ms, 11550ms total)
T2194 202:482 JLINK_WriteReg(R1, 0x00000400)  returns 0x00 (0000ms, 11550ms total)
T2194 202:482 JLINK_WriteReg(R2, 0x000000FF)  returns 0x00 (0000ms, 11550ms total)
T2194 202:482 JLINK_WriteReg(R3, 0x00000000)  returns 0x00 (0000ms, 11550ms total)
T2194 202:482 JLINK_WriteReg(R4, 0x00000000)  returns 0x00 (0000ms, 11550ms total)
T2194 202:482 JLINK_WriteReg(R5, 0x00000000)  returns 0x00 (0000ms, 11550ms total)
T2194 202:482 JLINK_WriteReg(R6, 0x00000000)  returns 0x00 (0000ms, 11550ms total)
T2194 202:482 JLINK_WriteReg(R7, 0x00000000)  returns 0x00 (0000ms, 11550ms total)
T2194 202:482 JLINK_WriteReg(R8, 0x00000000)  returns 0x00 (0000ms, 11550ms total)
T2194 202:482 JLINK_WriteReg(R9, 0x1FFFFE18)  returns 0x00 (0000ms, 11550ms total)
T2194 202:482 JLINK_WriteReg(R10, 0x00000000)  returns 0x00 (0000ms, 11550ms total)
T2194 202:482 JLINK_WriteReg(R11, 0x00000000)  returns 0x00 (0000ms, 11550ms total)
T2194 202:482 JLINK_WriteReg(R12, 0x00000000)  returns 0x00 (0000ms, 11550ms total)
T2194 202:482 JLINK_WriteReg(R13 (SP), 0x20001800)  returns 0x00 (0000ms, 11550ms total)
T2194 202:482 JLINK_WriteReg(R14, 0x1FFFF801)  returns 0x00 (0000ms, 11550ms total)
T2194 202:482 JLINK_WriteReg(R15 (PC), 0x1FFFF8BC)  returns 0x00 (0000ms, 11550ms total)
T2194 202:482 JLINK_WriteReg(XPSR, 0x01000000)  returns 0x00 (0000ms, 11550ms total)
T2194 202:482 JLINK_WriteReg(MSP, 0x20001800)  returns 0x00 (0000ms, 11550ms total)
T2194 202:482 JLINK_WriteReg(PSP, 0x20001800)  returns 0x00 (0000ms, 11550ms total)
T2194 202:482 JLINK_WriteReg(CFBP, 0x00000000)  returns 0x00 (0001ms, 11551ms total)
T2194 202:483 JLINK_SetBPEx(Addr = 0x1FFFF800, Type = 0xFFFFFFF2)  returns 0x00000009 (0000ms, 11551ms total)
T2194 202:483 JLINK_Go() -- CPU_WriteMem(4 bytes @ 0xE0002000) -- CPU_ReadMem(4 bytes @ 0xE0001000) -- CPU_WriteMem(4 bytes @ 0xE0001000) (0003ms, 11554ms total)
T2194 202:486 JLINK_IsHalted()  returns FALSE (0001ms, 11555ms total)
T2194 202:489 JLINK_IsHalted()  returns FALSE (0000ms, 11554ms total)
T2194 202:495 JLINK_IsHalted()  returns TRUE (0028ms, 11582ms total)
T2194 202:523 JLINK_ReadReg(R15 (PC))  returns 0x1FFFF800 (0000ms, 11554ms total)
T2194 202:523 JLINK_ClrBPEx(BPHandle = 0x00000009)  returns 0x00 (0000ms, 11554ms total)
T2194 202:523 JLINK_ReadReg(R0)  returns 0x00000000 (0000ms, 11554ms total)
T2194 202:524 JLINK_WriteReg(R0, 0x00001000)  returns 0x00 (0000ms, 11554ms total)
T2194 202:524 JLINK_WriteReg(R1, 0x00000400)  returns 0x00 (0000ms, 11554ms total)
T2194 202:524 JLINK_WriteReg(R2, 0x000000FF)  returns 0x00 (0000ms, 11554ms total)
T2194 202:524 JLINK_WriteReg(R3, 0x00000000)  returns 0x00 (0000ms, 11554ms total)
T2194 202:524 JLINK_WriteReg(R4, 0x00000000)  returns 0x00 (0000ms, 11554ms total)
T2194 202:524 JLINK_WriteReg(R5, 0x00000000)  returns 0x00 (0000ms, 11554ms total)
T2194 202:524 JLINK_WriteReg(R6, 0x00000000)  returns 0x00 (0000ms, 11554ms total)
T2194 202:524 JLINK_WriteReg(R7, 0x00000000)  returns 0x00 (0000ms, 11554ms total)
T2194 202:524 JLINK_WriteReg(R8, 0x00000000)  returns 0x00 (0000ms, 11554ms total)
T2194 202:524 JLINK_WriteReg(R9, 0x1FFFFE18)  returns 0x00 (0000ms, 11554ms total)
T2194 202:524 JLINK_WriteReg(R10, 0x00000000)  returns 0x00 (0000ms, 11554ms total)
T2194 202:524 JLINK_WriteReg(R11, 0x00000000)  returns 0x00 (0000ms, 11554ms total)
T2194 202:525 JLINK_WriteReg(R12, 0x00000000)  returns 0x00 (0000ms, 11555ms total)
T2194 202:525 JLINK_WriteReg(R13 (SP), 0x20001800)  returns 0x00 (0000ms, 11555ms total)
T2194 202:525 JLINK_WriteReg(R14, 0x1FFFF801)  returns 0x00 (0000ms, 11555ms total)
T2194 202:525 JLINK_WriteReg(R15 (PC), 0x1FFFF868)  returns 0x00 (0000ms, 11555ms total)
T2194 202:525 JLINK_WriteReg(XPSR, 0x01000000)  returns 0x00 (0000ms, 11555ms total)
T2194 202:525 JLINK_WriteReg(MSP, 0x20001800)  returns 0x00 (0000ms, 11555ms total)
T2194 202:525 JLINK_WriteReg(PSP, 0x20001800)  returns 0x00 (0000ms, 11555ms total)
T2194 202:525 JLINK_WriteReg(CFBP, 0x00000000)  returns 0x00 (0000ms, 11555ms total)
T2194 202:525 JLINK_SetBPEx(Addr = 0x1FFFF800, Type = 0xFFFFFFF2)  returns 0x0000000A (0000ms, 11555ms total)
T2194 202:525 JLINK_Go() -- CPU_WriteMem(4 bytes @ 0xE0002000) -- CPU_ReadMem(4 bytes @ 0xE0001000) -- CPU_WriteMem(4 bytes @ 0xE0001000) (0004ms, 11559ms total)
T2194 202:529 JLINK_IsHalted()  returns TRUE (0002ms, 11561ms total)
T2194 202:531 JLINK_ReadReg(R15 (PC))  returns 0x1FFFF800 (0000ms, 11559ms total)
T2194 202:531 JLINK_ClrBPEx(BPHandle = 0x0000000A)  returns 0x00 (0000ms, 11559ms total)
T2194 202:531 JLINK_ReadReg(R0)  returns 0x00000001 (0000ms, 11559ms total)
T2194 202:531 JLINK_WriteReg(R0, 0x00001000)  returns 0x00 (0000ms, 11559ms total)
T2194 202:531 JLINK_WriteReg(R1, 0x00000400)  returns 0x00 (0000ms, 11559ms total)
T2194 202:531 JLINK_WriteReg(R2, 0x000000FF)  returns 0x00 (0001ms, 11560ms total)
T2194 202:532 JLINK_WriteReg(R3, 0x00000000)  returns 0x00 (0000ms, 11560ms total)
T2194 202:532 JLINK_WriteReg(R4, 0x00000000)  returns 0x00 (0000ms, 11560ms total)
T2194 202:532 JLINK_WriteReg(R5, 0x00000000)  returns 0x00 (0000ms, 11560ms total)
T2194 202:532 JLINK_WriteReg(R6, 0x00000000)  returns 0x00 (0000ms, 11560ms total)
T2194 202:532 JLINK_WriteReg(R7, 0x00000000)  returns 0x00 (0000ms, 11560ms total)
T2194 202:532 JLINK_WriteReg(R8, 0x00000000)  returns 0x00 (0000ms, 11560ms total)
T2194 202:532 JLINK_WriteReg(R9, 0x1FFFFE18)  returns 0x00 (0000ms, 11560ms total)
T2194 202:532 JLINK_WriteReg(R10, 0x00000000)  returns 0x00 (0000ms, 11560ms total)
T2194 202:532 JLINK_WriteReg(R11, 0x00000000)  returns 0x00 (0000ms, 11560ms total)
T2194 202:532 JLINK_WriteReg(R12, 0x00000000)  returns 0x00 (0000ms, 11560ms total)
T2194 202:532 JLINK_WriteReg(R13 (SP), 0x20001800)  returns 0x00 (0000ms, 11560ms total)
T2194 202:532 JLINK_WriteReg(R14, 0x1FFFF801)  returns 0x00 (0000ms, 11560ms total)
T2194 202:532 JLINK_WriteReg(R15 (PC), 0x1FFFF8BC)  returns 0x00 (0000ms, 11560ms total)
T2194 202:532 JLINK_WriteReg(XPSR, 0x01000000)  returns 0x00 (0000ms, 11560ms total)
T2194 202:532 JLINK_WriteReg(MSP, 0x20001800)  returns 0x00 (0000ms, 11560ms total)
T2194 202:532 JLINK_WriteReg(PSP, 0x20001800)  returns 0x00 (0000ms, 11560ms total)
T2194 202:532 JLINK_WriteReg(CFBP, 0x00000000)  returns 0x00 (0000ms, 11560ms total)
T2194 202:532 JLINK_SetBPEx(Addr = 0x1FFFF800, Type = 0xFFFFFFF2)  returns 0x0000000B (0000ms, 11560ms total)
T2194 202:532 JLINK_Go() -- CPU_WriteMem(4 bytes @ 0xE0002000) -- CPU_ReadMem(4 bytes @ 0xE0001000) -- CPU_WriteMem(4 bytes @ 0xE0001000) (0004ms, 11564ms total)
T2194 202:536 JLINK_IsHalted()  returns FALSE (0000ms, 11564ms total)
T2194 202:538 JLINK_IsHalted()  returns FALSE (0000ms, 11564ms total)
T2194 202:540 JLINK_IsHalted()  returns FALSE (0000ms, 11564ms total)
T2194 202:542 JLINK_IsHalted()  returns FALSE (0000ms, 11564ms total)
T2194 202:548 JLINK_IsHalted()  returns TRUE (0003ms, 11567ms total)
T2194 202:551 JLINK_ReadReg(R15 (PC))  returns 0x1FFFF800 (0000ms, 11564ms total)
T2194 202:551 JLINK_ClrBPEx(BPHandle = 0x0000000B)  returns 0x00 (0000ms, 11564ms total)
T2194 202:551 JLINK_ReadReg(R0)  returns 0x00000000 (0000ms, 11564ms total)
T2194 202:551 JLINK_WriteReg(R0, 0x00001400)  returns 0x00 (0001ms, 11565ms total)
T2194 202:552 JLINK_WriteReg(R1, 0x00000400)  returns 0x00 (0000ms, 11565ms total)
T2194 202:552 JLINK_WriteReg(R2, 0x000000FF)  returns 0x00 (0000ms, 11565ms total)
T2194 202:552 JLINK_WriteReg(R3, 0x00000000)  returns 0x00 (0000ms, 11565ms total)
T2194 202:552 JLINK_WriteReg(R4, 0x00000000)  returns 0x00 (0000ms, 11565ms total)
T2194 202:552 JLINK_WriteReg(R5, 0x00000000)  returns 0x00 (0000ms, 11565ms total)
T2194 202:552 JLINK_WriteReg(R6, 0x00000000)  returns 0x00 (0000ms, 11565ms total)
T2194 202:552 JLINK_WriteReg(R7, 0x00000000)  returns 0x00 (0000ms, 11565ms total)
T2194 202:552 JLINK_WriteReg(R8, 0x00000000)  returns 0x00 (0000ms, 11565ms total)
T2194 202:552 JLINK_WriteReg(R9, 0x1FFFFE18)  returns 0x00 (0000ms, 11565ms total)
T2194 202:552 JLINK_WriteReg(R10, 0x00000000)  returns 0x00 (0000ms, 11565ms total)
T2194 202:552 JLINK_WriteReg(R11, 0x00000000)  returns 0x00 (0000ms, 11565ms total)
T2194 202:552 JLINK_WriteReg(R12, 0x00000000)  returns 0x00 (0000ms, 11565ms total)
T2194 202:552 JLINK_WriteReg(R13 (SP), 0x20001800)  returns 0x00 (0000ms, 11565ms total)
T2194 202:552 JLINK_WriteReg(R14, 0x1FFFF801)  returns 0x00 (0000ms, 11565ms total)
T2194 202:552 JLINK_WriteReg(R15 (PC), 0x1FFFF868)  returns 0x00 (0000ms, 11565ms total)
T2194 202:552 JLINK_WriteReg(XPSR, 0x01000000)  returns 0x00 (0000ms, 11565ms total)
T2194 202:552 JLINK_WriteReg(MSP, 0x20001800)  returns 0x00 (0001ms, 11566ms total)
T2194 202:553 JLINK_WriteReg(PSP, 0x20001800)  returns 0x00 (0000ms, 11566ms total)
T2194 202:553 JLINK_WriteReg(CFBP, 0x00000000)  returns 0x00 (0000ms, 11566ms total)
T2194 202:553 JLINK_SetBPEx(Addr = 0x1FFFF800, Type = 0xFFFFFFF2)  returns 0x0000000C (0000ms, 11566ms total)
T2194 202:553 JLINK_Go() -- CPU_WriteMem(4 bytes @ 0xE0002000) -- CPU_ReadMem(4 bytes @ 0xE0001000) -- CPU_WriteMem(4 bytes @ 0xE0001000) (0004ms, 11570ms total)
T2194 202:557 JLINK_IsHalted()  returns TRUE (0002ms, 11572ms total)
T2194 202:559 JLINK_ReadReg(R15 (PC))  returns 0x1FFFF800 (0000ms, 11570ms total)
T2194 202:559 JLINK_ClrBPEx(BPHandle = 0x0000000C)  returns 0x00 (0000ms, 11570ms total)
T2194 202:559 JLINK_ReadReg(R0)  returns 0x00000001 (0000ms, 11570ms total)
T2194 202:559 JLINK_WriteReg(R0, 0x00001400)  returns 0x00 (0000ms, 11570ms total)
T2194 202:559 JLINK_WriteReg(R1, 0x00000400)  returns 0x00 (0000ms, 11570ms total)
T2194 202:559 JLINK_WriteReg(R2, 0x000000FF)  returns 0x00 (0000ms, 11570ms total)
T2194 202:559 JLINK_WriteReg(R3, 0x00000000)  returns 0x00 (0000ms, 11570ms total)
T2194 202:559 JLINK_WriteReg(R4, 0x00000000)  returns 0x00 (0000ms, 11570ms total)
T2194 202:559 JLINK_WriteReg(R5, 0x00000000)  returns 0x00 (0001ms, 11571ms total)
T2194 202:560 JLINK_WriteReg(R6, 0x00000000)  returns 0x00 (0000ms, 11571ms total)
T2194 202:560 JLINK_WriteReg(R7, 0x00000000)  returns 0x00 (0000ms, 11571ms total)
T2194 202:560 JLINK_WriteReg(R8, 0x00000000)  returns 0x00 (0000ms, 11571ms total)
T2194 202:560 JLINK_WriteReg(R9, 0x1FFFFE18)  returns 0x00 (0000ms, 11571ms total)
T2194 202:560 JLINK_WriteReg(R10, 0x00000000)  returns 0x00 (0000ms, 11571ms total)
T2194 202:560 JLINK_WriteReg(R11, 0x00000000)  returns 0x00 (0000ms, 11571ms total)
T2194 202:560 JLINK_WriteReg(R12, 0x00000000)  returns 0x00 (0000ms, 11571ms total)
T2194 202:560 JLINK_WriteReg(R13 (SP), 0x20001800)  returns 0x00 (0000ms, 11571ms total)
T2194 202:560 JLINK_WriteReg(R14, 0x1FFFF801)  returns 0x00 (0000ms, 11571ms total)
T2194 202:560 JLINK_WriteReg(R15 (PC), 0x1FFFF8BC)  returns 0x00 (0000ms, 11571ms total)
T2194 202:560 JLINK_WriteReg(XPSR, 0x01000000)  returns 0x00 (0000ms, 11571ms total)
T2194 202:560 JLINK_WriteReg(MSP, 0x20001800)  returns 0x00 (0000ms, 11571ms total)
T2194 202:560 JLINK_WriteReg(PSP, 0x20001800)  returns 0x00 (0000ms, 11571ms total)
T2194 202:560 JLINK_WriteReg(CFBP, 0x00000000)  returns 0x00 (0000ms, 11571ms total)
T2194 202:560 JLINK_SetBPEx(Addr = 0x1FFFF800, Type = 0xFFFFFFF2)  returns 0x0000000D (0000ms, 11571ms total)
T2194 202:560 JLINK_Go() -- CPU_WriteMem(4 bytes @ 0xE0002000) -- CPU_ReadMem(4 bytes @ 0xE0001000) -- CPU_WriteMem(4 bytes @ 0xE0001000) (0004ms, 11575ms total)
T2194 202:564 JLINK_IsHalted()  returns TRUE (0032ms, 11607ms total)
T2194 202:596 JLINK_ReadReg(R15 (PC))  returns 0x1FFFF800 (0000ms, 11575ms total)
T2194 202:596 JLINK_ClrBPEx(BPHandle = 0x0000000D)  returns 0x00 (0000ms, 11575ms total)
T2194 202:596 JLINK_ReadReg(R0)  returns 0x00000000 (0000ms, 11575ms total)
T2194 202:596 JLINK_WriteReg(R0, 0x00001800)  returns 0x00 (0001ms, 11576ms total)
T2194 202:597 JLINK_WriteReg(R1, 0x00000400)  returns 0x00 (0000ms, 11576ms total)
T2194 202:597 JLINK_WriteReg(R2, 0x000000FF)  returns 0x00 (0000ms, 11576ms total)
T2194 202:597 JLINK_WriteReg(R3, 0x00000000)  returns 0x00 (0000ms, 11576ms total)
T2194 202:597 JLINK_WriteReg(R4, 0x00000000)  returns 0x00 (0000ms, 11576ms total)
T2194 202:597 JLINK_WriteReg(R5, 0x00000000)  returns 0x00 (0000ms, 11576ms total)
T2194 202:597 JLINK_WriteReg(R6, 0x00000000)  returns 0x00 (0000ms, 11576ms total)
T2194 202:597 JLINK_WriteReg(R7, 0x00000000)  returns 0x00 (0000ms, 11576ms total)
T2194 202:597 JLINK_WriteReg(R8, 0x00000000)  returns 0x00 (0000ms, 11576ms total)
T2194 202:597 JLINK_WriteReg(R9, 0x1FFFFE18)  returns 0x00 (0000ms, 11576ms total)
T2194 202:597 JLINK_WriteReg(R10, 0x00000000)  returns 0x00 (0000ms, 11576ms total)
T2194 202:597 JLINK_WriteReg(R11, 0x00000000)  returns 0x00 (0000ms, 11576ms total)
T2194 202:597 JLINK_WriteReg(R12, 0x00000000)  returns 0x00 (0000ms, 11576ms total)
T2194 202:597 JLINK_WriteReg(R13 (SP), 0x20001800)  returns 0x00 (0000ms, 11576ms total)
T2194 202:597 JLINK_WriteReg(R14, 0x1FFFF801)  returns 0x00 (0000ms, 11576ms total)
T2194 202:597 JLINK_WriteReg(R15 (PC), 0x1FFFF868)  returns 0x00 (0000ms, 11576ms total)
T2194 202:597 JLINK_WriteReg(XPSR, 0x01000000)  returns 0x00 (0000ms, 11576ms total)
T2194 202:597 JLINK_WriteReg(MSP, 0x20001800)  returns 0x00 (0000ms, 11576ms total)
T2194 202:597 JLINK_WriteReg(PSP, 0x20001800)  returns 0x00 (0000ms, 11576ms total)
T2194 202:597 JLINK_WriteReg(CFBP, 0x00000000)  returns 0x00 (0000ms, 11576ms total)
T2194 202:597 JLINK_SetBPEx(Addr = 0x1FFFF800, Type = 0xFFFFFFF2)  returns 0x0000000E (0000ms, 11576ms total)
T2194 202:597 JLINK_Go() -- CPU_WriteMem(4 bytes @ 0xE0002000) -- CPU_ReadMem(4 bytes @ 0xE0001000) -- CPU_WriteMem(4 bytes @ 0xE0001000) (0004ms, 11580ms total)
T2194 202:601 JLINK_IsHalted()  returns TRUE (0002ms, 11582ms total)
T2194 202:603 JLINK_ReadReg(R15 (PC))  returns 0x1FFFF800 (0001ms, 11581ms total)
T2194 202:604 JLINK_ClrBPEx(BPHandle = 0x0000000E)  returns 0x00 (0000ms, 11581ms total)
T2194 202:604 JLINK_ReadReg(R0)  returns 0x00000001 (0000ms, 11581ms total)
T2194 202:604 JLINK_WriteReg(R0, 0x00001800)  returns 0x00 (0000ms, 11581ms total)
T2194 202:604 JLINK_WriteReg(R1, 0x00000400)  returns 0x00 (0000ms, 11581ms total)
T2194 202:604 JLINK_WriteReg(R2, 0x000000FF)  returns 0x00 (0000ms, 11581ms total)
T2194 202:604 JLINK_WriteReg(R3, 0x00000000)  returns 0x00 (0000ms, 11581ms total)
T2194 202:604 JLINK_WriteReg(R4, 0x00000000)  returns 0x00 (0000ms, 11581ms total)
T2194 202:604 JLINK_WriteReg(R5, 0x00000000)  returns 0x00 (0000ms, 11581ms total)
T2194 202:604 JLINK_WriteReg(R6, 0x00000000)  returns 0x00 (0000ms, 11581ms total)
T2194 202:604 JLINK_WriteReg(R7, 0x00000000)  returns 0x00 (0000ms, 11581ms total)
T2194 202:604 JLINK_WriteReg(R8, 0x00000000)  returns 0x00 (0000ms, 11581ms total)
T2194 202:604 JLINK_WriteReg(R9, 0x1FFFFE18)  returns 0x00 (0000ms, 11581ms total)
T2194 202:604 JLINK_WriteReg(R10, 0x00000000)  returns 0x00 (0000ms, 11581ms total)
T2194 202:604 JLINK_WriteReg(R11, 0x00000000)  returns 0x00 (0000ms, 11581ms total)
T2194 202:604 JLINK_WriteReg(R12, 0x00000000)  returns 0x00 (0000ms, 11581ms total)
T2194 202:604 JLINK_WriteReg(R13 (SP), 0x20001800)  returns 0x00 (0000ms, 11581ms total)
T2194 202:604 JLINK_WriteReg(R14, 0x1FFFF801)  returns 0x00 (0000ms, 11581ms total)
T2194 202:604 JLINK_WriteReg(R15 (PC), 0x1FFFF8BC)  returns 0x00 (0000ms, 11581ms total)
T2194 202:604 JLINK_WriteReg(XPSR, 0x01000000)  returns 0x00 (0000ms, 11581ms total)
T2194 202:604 JLINK_WriteReg(MSP, 0x20001800)  returns 0x00 (0000ms, 11581ms total)
T2194 202:604 JLINK_WriteReg(PSP, 0x20001800)  returns 0x00 (0000ms, 11581ms total)
T2194 202:604 JLINK_WriteReg(CFBP, 0x00000000)  returns 0x00 (0001ms, 11582ms total)
T2194 202:605 JLINK_SetBPEx(Addr = 0x1FFFF800, Type = 0xFFFFFFF2)  returns 0x0000000F (0000ms, 11582ms total)
T2194 202:605 JLINK_Go() -- CPU_WriteMem(4 bytes @ 0xE0002000) -- CPU_ReadMem(4 bytes @ 0xE0001000) -- CPU_WriteMem(4 bytes @ 0xE0001000) (0003ms, 11585ms total)
T2194 202:609 JLINK_IsHalted()  returns FALSE (0000ms, 11585ms total)
T2194 202:613 JLINK_IsHalted()  returns FALSE (0000ms, 11585ms total)
T2194 202:615 JLINK_IsHalted()  returns FALSE (0000ms, 11585ms total)
T2194 202:617 JLINK_IsHalted()  returns FALSE (0000ms, 11585ms total)
T2194 202:619 JLINK_IsHalted()  returns TRUE (0002ms, 11587ms total)
T2194 202:621 JLINK_ReadReg(R15 (PC))  returns 0x1FFFF800 (0000ms, 11585ms total)
T2194 202:621 JLINK_ClrBPEx(BPHandle = 0x0000000F)  returns 0x00 (0000ms, 11585ms total)
T2194 202:621 JLINK_ReadReg(R0)  returns 0x00000000 (0000ms, 11585ms total)
T2194 202:622 JLINK_WriteReg(R0, 0x00001C00)  returns 0x00 (0000ms, 11585ms total)
T2194 202:622 JLINK_WriteReg(R1, 0x00000400)  returns 0x00 (0000ms, 11585ms total)
T2194 202:622 JLINK_WriteReg(R2, 0x000000FF)  returns 0x00 (0000ms, 11585ms total)
T2194 202:622 JLINK_WriteReg(R3, 0x00000000)  returns 0x00 (0000ms, 11585ms total)
T2194 202:622 JLINK_WriteReg(R4, 0x00000000)  returns 0x00 (0000ms, 11585ms total)
T2194 202:622 JLINK_WriteReg(R5, 0x00000000)  returns 0x00 (0000ms, 11585ms total)
T2194 202:622 JLINK_WriteReg(R6, 0x00000000)  returns 0x00 (0000ms, 11585ms total)
T2194 202:622 JLINK_WriteReg(R7, 0x00000000)  returns 0x00 (0000ms, 11585ms total)
T2194 202:622 JLINK_WriteReg(R8, 0x00000000)  returns 0x00 (0000ms, 11585ms total)
T2194 202:622 JLINK_WriteReg(R9, 0x1FFFFE18)  returns 0x00 (0000ms, 11585ms total)
T2194 202:622 JLINK_WriteReg(R10, 0x00000000)  returns 0x00 (0000ms, 11585ms total)
T2194 202:623 JLINK_WriteReg(R11, 0x00000000)  returns 0x00 (0000ms, 11586ms total)
T2194 202:623 JLINK_WriteReg(R12, 0x00000000)  returns 0x00 (0000ms, 11586ms total)
T2194 202:623 JLINK_WriteReg(R13 (SP), 0x20001800)  returns 0x00 (0000ms, 11586ms total)
T2194 202:623 JLINK_WriteReg(R14, 0x1FFFF801)  returns 0x00 (0000ms, 11586ms total)
T2194 202:623 JLINK_WriteReg(R15 (PC), 0x1FFFF868)  returns 0x00 (0000ms, 11586ms total)
T2194 202:623 JLINK_WriteReg(XPSR, 0x01000000)  returns 0x00 (0000ms, 11586ms total)
T2194 202:623 JLINK_WriteReg(MSP, 0x20001800)  returns 0x00 (0000ms, 11586ms total)
T2194 202:623 JLINK_WriteReg(PSP, 0x20001800)  returns 0x00 (0000ms, 11586ms total)
T2194 202:623 JLINK_WriteReg(CFBP, 0x00000000)  returns 0x00 (0000ms, 11586ms total)
T2194 202:623 JLINK_SetBPEx(Addr = 0x1FFFF800, Type = 0xFFFFFFF2)  returns 0x00000010 (0000ms, 11586ms total)
T2194 202:623 JLINK_Go() -- CPU_WriteMem(4 bytes @ 0xE0002000) -- CPU_ReadMem(4 bytes @ 0xE0001000) -- CPU_WriteMem(4 bytes @ 0xE0001000) (0003ms, 11589ms total)
T2194 202:626 JLINK_IsHalted()  returns TRUE (0003ms, 11592ms total)
T2194 202:629 JLINK_ReadReg(R15 (PC))  returns 0x1FFFF800 (0000ms, 11589ms total)
T2194 202:629 JLINK_ClrBPEx(BPHandle = 0x00000010)  returns 0x00 (0000ms, 11589ms total)
T2194 202:629 JLINK_ReadReg(R0)  returns 0x00000001 (0000ms, 11589ms total)
T2194 202:629 JLINK_WriteReg(R0, 0x00001C00)  returns 0x00 (0000ms, 11589ms total)
T2194 202:629 JLINK_WriteReg(R1, 0x00000400)  returns 0x00 (0000ms, 11589ms total)
T2194 202:629 JLINK_WriteReg(R2, 0x000000FF)  returns 0x00 (0000ms, 11589ms total)
T2194 202:629 JLINK_WriteReg(R3, 0x00000000)  returns 0x00 (0000ms, 11589ms total)
T2194 202:629 JLINK_WriteReg(R4, 0x00000000)  returns 0x00 (0000ms, 11589ms total)
T2194 202:629 JLINK_WriteReg(R5, 0x00000000)  returns 0x00 (0000ms, 11589ms total)
T2194 202:629 JLINK_WriteReg(R6, 0x00000000)  returns 0x00 (0000ms, 11589ms total)
T2194 202:629 JLINK_WriteReg(R7, 0x00000000)  returns 0x00 (0000ms, 11589ms total)
T2194 202:629 JLINK_WriteReg(R8, 0x00000000)  returns 0x00 (0000ms, 11589ms total)
T2194 202:629 JLINK_WriteReg(R9, 0x1FFFFE18)  returns 0x00 (0000ms, 11589ms total)
T2194 202:629 JLINK_WriteReg(R10, 0x00000000)  returns 0x00 (0000ms, 11589ms total)
T2194 202:629 JLINK_WriteReg(R11, 0x00000000)  returns 0x00 (0000ms, 11589ms total)
T2194 202:629 JLINK_WriteReg(R12, 0x00000000)  returns 0x00 (0000ms, 11589ms total)
T2194 202:629 JLINK_WriteReg(R13 (SP), 0x20001800)  returns 0x00 (0001ms, 11590ms total)
T2194 202:630 JLINK_WriteReg(R14, 0x1FFFF801)  returns 0x00 (0000ms, 11590ms total)
T2194 202:630 JLINK_WriteReg(R15 (PC), 0x1FFFF8BC)  returns 0x00 (0000ms, 11590ms total)
T2194 202:630 JLINK_WriteReg(XPSR, 0x01000000)  returns 0x00 (0000ms, 11590ms total)
T2194 202:630 JLINK_WriteReg(MSP, 0x20001800)  returns 0x00 (0000ms, 11590ms total)
T2194 202:630 JLINK_WriteReg(PSP, 0x20001800)  returns 0x00 (0000ms, 11590ms total)
T2194 202:630 JLINK_WriteReg(CFBP, 0x00000000)  returns 0x00 (0000ms, 11590ms total)
T2194 202:630 JLINK_SetBPEx(Addr = 0x1FFFF800, Type = 0xFFFFFFF2)  returns 0x00000011 (0000ms, 11590ms total)
T2194 202:630 JLINK_Go() -- CPU_WriteMem(4 bytes @ 0xE0002000) -- CPU_ReadMem(4 bytes @ 0xE0001000) -- CPU_WriteMem(4 bytes @ 0xE0001000) (0003ms, 11593ms total)
